! 2/13/2019 10:47:19 AM
! C:\USERS\RF LAB\DESKTOP\MKH3CF_MICROWAVE_LAB\BL1.S2P
! CHANNEL.1
! TR.MEASUREMENT
! CORRECTED.DATA
# GHZ S RI R 50.0
! FREQ.GHZ         S11RE         S11IM         S21RE         S21IM         S12RE         S12IM         S22RE         S22IM         
!; PortSelection: Port_12
   0.000300000    -0.4919949   -0.0001353     0.5097550   -0.0014888     0.5092182   -0.0018099    -0.4906676    0.0011744 
   0.042798500    -0.4948870    0.0090105     0.5002400   -0.0701508     0.4989675   -0.0705712    -0.4885532    0.0178914 
   0.085297000    -0.4964589    0.0219061     0.4938705   -0.1371088     0.4912907   -0.1366880    -0.4886503    0.0360416 
   0.127795500    -0.4986523    0.0357008     0.4614131   -0.2128575     0.4588999   -0.2117096    -0.4899223    0.0523810 
   0.170294000    -0.5030508    0.0520456     0.4270854   -0.2528860     0.4290586   -0.2523952    -0.4915208    0.0714622 
   0.212792500    -0.5095676    0.0719244     0.4018867   -0.3229720     0.4059540   -0.3253909    -0.4934706    0.0932019 
   0.255291000    -0.5225942    0.0859005     0.3175415   -0.3788936     0.3200683   -0.3784966    -0.4997278    0.1136178 
   0.297789500    -0.5341277    0.1032483     0.2832914   -0.3965029     0.2879146   -0.3969629    -0.5041523    0.1308290 
   0.340288000    -0.5517840    0.1310433     0.2152473   -0.4746774     0.2127607   -0.4778674    -0.5124063    0.1474911 
   0.382786500    -0.5998681    0.1867518     0.0546121   -0.4580871     0.0576121   -0.4455254    -0.5480338    0.1543004 
   0.425285000    -0.6320726    0.4401600    -0.0404948   -0.2853355    -0.0381748   -0.2987570    -0.7277614    0.2318214 
   0.467783500    -0.2946599    0.2973169     0.2061127   -0.4049081     0.1891458   -0.3947126    -0.4838633    0.4614596 
   0.510282000    -0.3632498    0.2254301     0.0524607   -0.4454786     0.0587707   -0.4468947    -0.4264571    0.4255492 
   0.552780500    -0.3867945    0.2187760     0.0111459   -0.4800574     0.0070981   -0.4817375    -0.4021348    0.4405541 
   0.595279000    -0.3837692    0.2175113    -0.1315608   -0.4958954    -0.1286911   -0.4984695    -0.3605162    0.4730101 
   0.637777500    -0.3708791    0.2118816    -0.1982009   -0.4100770    -0.2059269   -0.4122022    -0.2992437    0.5152234 
   0.680276000    -0.3578385    0.1767072    -0.2991107   -0.3718295    -0.2858043   -0.3643676    -0.1916580    0.5510747 
   0.722774500    -0.4088802    0.0817239    -0.3230422   -0.1381596    -0.3388404   -0.1553532     0.0039040    0.4767649 
   0.765273000    -0.6412134    0.1254307    -0.0747291   -0.0871971    -0.0687511   -0.0768766    -0.0258473    0.1387643 
   0.807771500    -0.6560634    0.3570800    -0.0282388   -0.2945579    -0.0129020   -0.3092850    -0.3013071    0.1493560 
   0.850270000    -0.5844685    0.4526631    -0.1854406   -0.3676357    -0.2215965   -0.3376773    -0.3740306    0.2754654 
   0.892768500    -0.5149700    0.4903229    -0.2274866   -0.3108416    -0.1911766   -0.3006057    -0.3608153    0.3624937 
   0.935267000    -0.4530850    0.5248581    -0.2991096   -0.3485282    -0.3006759   -0.3774796    -0.3231275    0.4285342 
   0.977765500    -0.4039004    0.5528780    -0.4139309   -0.2561645    -0.4359893   -0.2137482    -0.2866386    0.4783005 
   1.020264000    -0.3526790    0.5752042    -0.3878548   -0.2067112    -0.3540895   -0.2015286    -0.2393357    0.5122259 
   1.062762500    -0.3104771    0.5981184    -0.4657226   -0.1883884    -0.4722739   -0.2128746    -0.1927347    0.5409764 
   1.105261000    -0.2739626    0.6183299    -0.4691414   -0.0649668    -0.4754451   -0.0443639    -0.1447806    0.5656854 
   1.147759500    -0.2395163    0.6333001    -0.4606324   -0.0744736    -0.4496121   -0.0840287    -0.0966049    0.5826713 
   1.190258000    -0.1988871    0.6364723    -0.5551131    0.0211837    -0.5725836    0.0191262    -0.0512519    0.5879667 
   1.232756500    -0.1432287    0.6389356    -0.4538211    0.1293269    -0.4247748    0.1290596     0.0043477    0.5872203 
   1.275255000    -0.0968777    0.6482021    -0.4787148    0.0967756    -0.4752553    0.0588678     0.0540996    0.5882489 
   1.317753500    -0.0547693    0.6404153    -0.5189968    0.2508717    -0.5618808    0.2621462     0.1006636    0.5749416 
   1.360252000    -0.0000236    0.6290752    -0.3949417    0.2769208    -0.3563725    0.2909026     0.1620446    0.5487093 
   1.402750500     0.0462690    0.6283399    -0.4575835    0.3006968    -0.4444854    0.2613781     0.2196888    0.5334147 
   1.445249000     0.0848104    0.6195295    -0.3581998    0.4557995    -0.4026050    0.4654199     0.2688096    0.5140627 
   1.487747500     0.1220539    0.5924241    -0.2977338    0.3761149    -0.2881700    0.4023796     0.3085443    0.4800088 
   1.530246000     0.1782591    0.5596964    -0.3686261    0.4977685    -0.3661810    0.5020080     0.3535558    0.4365585 
   1.572744500     0.2380811    0.5428228    -0.1347428    0.6030684    -0.1365756    0.6135151     0.4072573    0.4043653 
   1.615243000     0.2552379    0.5148867    -0.1380613    0.4866383    -0.1545966    0.4828950     0.4156814    0.3677242 
   1.657741500     0.2867616    0.4607452    -0.1458112    0.6396517    -0.1847750    0.6701162     0.4240880    0.2951574 
   1.700240000     0.3273025    0.4306847     0.0680679    0.6384675     0.1244089    0.6533271     0.4540525    0.2287040 
   1.742738500     0.3389437    0.3905981     0.0623653    0.6039015     0.0573939    0.5330446     0.4585499    0.1715890 
   1.785237000     0.3456100    0.3249829     0.2043958    0.6612589     0.1125088    0.6886049     0.4514726    0.1040154 
   1.827735500     0.3598002    0.2581362     0.2665690    0.5486221     0.3321387    0.6054329     0.4404811    0.0255422 
   1.870234000     0.3735766    0.2045287     0.3173353    0.6281421     0.3392400    0.5447111     0.4314869   -0.0437528 
   1.912732500     0.3685603    0.1590271     0.5461080    0.5015332     0.4633076    0.5294729     0.4098000   -0.1021588 
   1.955231000     0.3487084    0.1137190     0.4581308    0.3967005     0.5144544    0.4396898     0.3748631   -0.1481007 
   1.997729500     0.3137975    0.0601006     0.5960215    0.4809578     0.6175460    0.4208940     0.3167940   -0.1910757 
   2.040228000     0.2882173    0.0069396     0.7298351    0.2195284     0.6975226    0.2419002     0.2538488   -0.2384506 
   2.082726500     0.2515586   -0.0224338     0.6306705    0.1821920     0.6576139    0.1865552     0.2012616   -0.2518735 
   2.125225000     0.1937784   -0.0579113     0.7828663    0.1319660     0.7698433    0.1170292     0.1184805   -0.2569679 
   2.167723500     0.1510729   -0.0888050     0.7351347   -0.0915235     0.7550263   -0.0749476     0.0395509   -0.2672529 
   2.210222000     0.1054985   -0.0990700     0.7114255   -0.1029805     0.7150077   -0.1358807    -0.0254603   -0.2639013 
   2.252720500     0.0532760   -0.0950389     0.7482014   -0.2894523     0.7228184   -0.2603286    -0.0893502   -0.2385963 
   2.295219000     0.0038534   -0.0838405     0.6080458   -0.3702040     0.6527152   -0.3706711    -0.1425806   -0.2062268 
   2.337717500    -0.0476235   -0.0634001     0.6299000   -0.4370834     0.5998763   -0.4695363    -0.1902076   -0.1613802 
   2.380216000    -0.0929022   -0.0404838     0.4921691   -0.5983062     0.4959799   -0.5485929    -0.2224046   -0.1110840 
   2.422714500    -0.1259114   -0.0125374     0.3998200   -0.5766513     0.4376527   -0.6013183    -0.2361431   -0.0522361 
   2.465213000    -0.1512859    0.0285328     0.3552220   -0.6894959     0.3127347   -0.6991264    -0.2458357    0.0206896 
   2.507711500    -0.1715200    0.0679132     0.1738077   -0.7099634     0.1821919   -0.6715025    -0.2514068    0.0782579 
   2.550210000    -0.1816778    0.1129409     0.1193362   -0.6904457     0.1400875   -0.7030509    -0.2450427    0.1347850 
   2.592708500    -0.1879160    0.1608759    -0.0059644   -0.7310926    -0.0229507   -0.7446933    -0.2310947    0.1894119 
   2.635207000    -0.1941409    0.2015928    -0.1075838   -0.6724346    -0.1279732   -0.6662163    -0.2075636    0.2273999 
   2.677705500    -0.1893526    0.2363300    -0.1855916   -0.6815134    -0.1918808   -0.6549851    -0.1747302    0.2613507 
   2.720204000    -0.1765608    0.2649229    -0.3180013   -0.6087216    -0.2991711   -0.6052233    -0.1369539    0.2862662 
   2.762702500    -0.1514925    0.2935323    -0.3401895   -0.5386845    -0.3508429   -0.5577326    -0.0940828    0.3010036 
   2.805201000    -0.1229557    0.3204269    -0.4257942   -0.5241724    -0.4559249   -0.5182414    -0.0428443    0.3099217 
   2.847699500    -0.0960457    0.3482201    -0.4991051   -0.4252651    -0.5040137   -0.3913034     0.0095491    0.3164508 
   2.890198000    -0.0692787    0.3759474    -0.5334971   -0.3572345    -0.4883206   -0.3529992     0.0622253    0.3260151 
   2.932696500    -0.0470565    0.3940735    -0.5594768   -0.2573817    -0.5787361   -0.3263638     0.1056372    0.3277314 
   2.975195000    -0.0244123    0.4101286    -0.5504616   -0.2199001    -0.6258571   -0.1716583     0.1461281    0.3274274 
   3.017693500     0.0010381    0.4059493    -0.6579286   -0.1364243    -0.5563205   -0.0884848     0.1705178    0.3152460 
   3.060192000     0.0526816    0.4011595    -0.5892345    0.0349186    -0.5679417   -0.0931574     0.2091903    0.2964750 
   3.102690500     0.0734384    0.4053918    -0.5309598    0.0006688    -0.6477532    0.0340394     0.2229879    0.2809632 
   3.145189000     0.1104827    0.3964969    -0.6586269    0.0953324    -0.5468062    0.1675847     0.2363336    0.2381604 
   3.187687500     0.1592985    0.4129566    -0.5284712    0.2575742    -0.4964046    0.1459101     0.2627697    0.2057438 
   3.230186000     0.1697939    0.4133291    -0.4789074    0.2036822    -0.5662143    0.2434101     0.2737579    0.1707010 
   3.272684500     0.1933810    0.3973700    -0.5492918    0.3301193    -0.4431273    0.3697751     0.2856469    0.1207176 
   3.315183000     0.2288162    0.3868642    -0.3788154    0.4191661    -0.3918339    0.3330394     0.3095852    0.0812146 
   3.357681500     0.2477995    0.3708513    -0.3604794    0.3666109    -0.4200189    0.4455752     0.3198584    0.0530570 
   3.400180000     0.2753986    0.3424783    -0.3563785    0.5127320    -0.2562107    0.4949154     0.3224023    0.0172300 
   3.442678500     0.3171797    0.3259413    -0.1829573    0.5057399    -0.2466628    0.4298870     0.3286708   -0.0196584 
   3.485177000     0.3309132    0.3312446    -0.1950420    0.4644944    -0.2431830    0.5729922     0.3269618   -0.0331810 
   3.527675500     0.3423852    0.3021234    -0.1288351    0.5914276    -0.0454818    0.5519206     0.2999511   -0.0620774 
   3.570174000     0.3761110    0.2720006     0.0096813    0.5310223    -0.0526694    0.4685396     0.2824885   -0.1069276 
   3.612672500     0.3872030    0.2586854     0.0027109    0.5134335    -0.0132427    0.5915583     0.2706956   -0.1334178 
   3.655171000     0.3976270    0.2184652     0.1220439    0.5684533     0.1579268    0.5205922     0.2429314   -0.1588702 
   3.697669500     0.4227473    0.1752648     0.1981308    0.4778256     0.1412146    0.4536201     0.2107799   -0.2006591 
   3.740168000     0.4451205    0.1597590     0.2037355    0.4831665     0.2311646    0.5201432     0.1933616   -0.2374046 
   3.782666500     0.4499070    0.1382405     0.3343191    0.4585603     0.3369860    0.4053946     0.1775205   -0.2621764 
   3.825165000     0.4573789    0.0980649     0.3584460    0.3584213     0.3138531    0.3748170     0.1501188   -0.2765617 
   3.867663500     0.4618783    0.0625410     0.3774081    0.3674690     0.4312949    0.3780732     0.1253708   -0.2914907 
   3.910162000     0.4541601    0.0343185     0.4783839    0.2877744     0.4600886    0.2393725     0.0984877   -0.3009545 
   3.952660500     0.4440486   -0.0231964     0.4646890    0.1932671     0.4346436    0.2303086     0.0577835   -0.3029942 
   3.995159000     0.4611055   -0.0768360     0.4898940    0.1748679     0.5469970    0.1775781     0.0311103   -0.3062701 
   4.037657500     0.4614590   -0.0976350     0.5420384    0.0755044     0.5201730    0.0495048    -0.0117157   -0.3046885 
   4.080156000     0.4502593   -0.1216753     0.5044469   -0.0018618     0.4864822    0.0354792    -0.0645545   -0.2916814 
   4.122654500     0.4234375   -0.1659137     0.5133128   -0.0410149     0.5426636   -0.0455538    -0.1121259   -0.2967365 
   4.165153000     0.4116891   -0.2052810     0.5164334   -0.1464190     0.4906280   -0.1473717    -0.1548703   -0.2995404 
   4.207651500     0.3775482   -0.2442293     0.4630017   -0.2044796     0.4593216   -0.1666817    -0.1945716   -0.2844004 
   4.250150000     0.3437001   -0.2770384     0.4402090   -0.2419945     0.4592258   -0.2529507    -0.2292431   -0.2729257 
   4.292648500     0.3037760   -0.3191374     0.4032066   -0.3196409     0.3857109   -0.3228767    -0.2672200   -0.2542180 
   4.335147000     0.2770812   -0.3589510     0.3381077   -0.3683536     0.3427505   -0.3464953    -0.2992529   -0.2213286 
   4.377645500     0.2405774   -0.3779515     0.2895928   -0.4031473     0.3019131   -0.4106686    -0.3291028   -0.1930111 
   4.420144000     0.1902721   -0.3795388     0.2269731   -0.4420801     0.2252528   -0.4469016    -0.3567321   -0.1494150 
   4.462642500     0.1172376   -0.3883445     0.1512077   -0.4592246     0.1610282   -0.4641628    -0.3823831   -0.0957561 
   4.505141000     0.0482657   -0.3936404     0.0854089   -0.4711373     0.0914689   -0.4837655    -0.4116352   -0.0398905 
   4.547639500    -0.0184497   -0.3891410     0.0137952   -0.4756056     0.0168135   -0.4806172    -0.4286841    0.0110922 
   4.590138000    -0.0829977   -0.3707172    -0.0579718   -0.4559773    -0.0525309   -0.4631104    -0.4349154    0.0730895 
   4.632636500    -0.1455093   -0.3315353    -0.1158960   -0.4225579    -0.1184794   -0.4383934    -0.4259382    0.1483136 
   4.675135000    -0.1995881   -0.2710047    -0.1710055   -0.3902217    -0.1794563   -0.3983900    -0.4108107    0.2195979 
   4.717633500    -0.2479563   -0.1860926    -0.2232099   -0.3380000    -0.2183779   -0.3412712    -0.3661704    0.2744258 
   4.760132000    -0.2822690   -0.0883199    -0.2411310   -0.2703664    -0.2421821   -0.2854947    -0.2900822    0.3350044 
   4.802630500    -0.2788913    0.0200162    -0.2391412   -0.2271839    -0.2494482   -0.2260575    -0.1812548    0.3856832 
   4.845129000    -0.2373962    0.1244636    -0.2349528   -0.1907590    -0.2316247   -0.1884827    -0.0686042    0.4104439 
   4.887627500    -0.1405903    0.2198715    -0.2121119   -0.1764899    -0.2162696   -0.1800220     0.0457438    0.3769338 
   4.930126000     0.0033967    0.2781714    -0.2129843   -0.1996500    -0.2125978   -0.1915996     0.1523279    0.2996142 
   4.972624500     0.1797784    0.2949422    -0.2538464   -0.2152065    -0.2492038   -0.2164785     0.2296724    0.1906185 
   5.015123000     0.3810136    0.2146878    -0.3229452   -0.2052527    -0.3273746   -0.1886751     0.2546015    0.0674731 
   5.057621500     0.4794651    0.0076787    -0.3956833   -0.1088498    -0.3714748   -0.1174039     0.2240365   -0.0804728 
   5.100120000     0.4241910   -0.2072471    -0.3506342   -0.0177388    -0.3712281   -0.0266278     0.1134615   -0.2100986 
   5.142618500     0.3248834   -0.3374321    -0.3330970   -0.0050672    -0.3142422    0.0115342    -0.0132886   -0.2581719 
   5.185117000     0.2420784   -0.4012299    -0.3245159    0.0305454    -0.3118165    0.0008430    -0.1200227   -0.2459983 
   5.227615500     0.1634767   -0.4520435    -0.3057705    0.0332968    -0.3387863    0.0362382    -0.2062941   -0.2038574 
   5.270114000     0.0821522   -0.4893736    -0.3320458    0.0519485    -0.3142018    0.0767089    -0.2680744   -0.1577393 
   5.312612500    -0.0783425   -0.5011010    -0.3435569    0.0963565    -0.3341316    0.0669095    -0.3062894   -0.1106784 
   5.355111000    -0.0894126   -0.3409537    -0.3478841    0.1513152    -0.3703362    0.1547512    -0.3348095   -0.0635089 
   5.397609500    -0.1119665   -0.3494517    -0.3378209    0.2093476    -0.3347248    0.2179286    -0.3551739   -0.0024543 
   5.440108000    -0.1639333   -0.3576657    -0.3009802    0.2495648    -0.3139652    0.2542416    -0.3726428    0.0526962 
   5.482606500    -0.2081805   -0.3608460    -0.2983747    0.2890558    -0.2839019    0.3093812    -0.3873159    0.0998825 
   5.525105000    -0.2380753   -0.3533464    -0.2508738    0.3780679    -0.2426773    0.3418730    -0.3907938    0.1418567 
   5.567603500    -0.2649531   -0.3315060    -0.1565485    0.3717301    -0.2115910    0.3961190    -0.3885042    0.1836233 
   5.610102000    -0.2959211   -0.2973236    -0.1638709    0.3790175    -0.1176072    0.4351294    -0.3782036    0.2272733 
   5.652600500    -0.3318163   -0.2698673    -0.1075569    0.4732640    -0.0753279    0.4089675    -0.3778288    0.2674583 
   5.695099000    -0.3636522   -0.2402525     0.0316453    0.4548430    -0.0553982    0.4603611    -0.3615717    0.2952829 
   5.737597500    -0.4056101   -0.2077471     0.0348605    0.4147784     0.0808217    0.4916686    -0.3365004    0.3358480 
   5.780096000    -0.4353434   -0.1917744     0.0849072    0.4702243     0.1362492    0.4031410    -0.3190554    0.3738528 
   5.822594500    -0.4605853   -0.1643134     0.2008390    0.4411986     0.1388979    0.4270264    -0.2962608    0.4107385 
   5.865093000    -0.4827952   -0.1365937     0.2236290    0.3892340     0.2512999    0.4379963    -0.2744291    0.4404746 
   5.907591500    -0.4999271   -0.0981342     0.2891191    0.3855696     0.3099301    0.3478004    -0.2432758    0.4646383 
   5.950090000    -0.5180938   -0.0505392     0.3502768    0.2997248     0.3372585    0.3218337    -0.2047575    0.4951421 
   5.992588500    -0.5404187   -0.0016412     0.3370638    0.2787698     0.3920369    0.2630609    -0.1756982    0.5234876 
   6.035087000    -0.5646703    0.0393955     0.4318556    0.2825248     0.3906171    0.2267654    -0.1382467    0.5435309 
   6.077585500    -0.5783716    0.0741943     0.4958507    0.1163638     0.4683389    0.2038184    -0.1010136    0.5484076 
   6.120084000    -0.5709267    0.1274996     0.4016253    0.0779283     0.4968270    0.0453438    -0.0426337    0.5616456 
   6.162582500    -0.5744371    0.1840938     0.4666827    0.1174138     0.4086871    0.0232285     0.0030331    0.5831543 
   6.205081000    -0.5578076    0.2424050     0.5526726   -0.0362422     0.4724928    0.0435187     0.0508720    0.5724759 
   6.247579500    -0.5526550    0.3137491     0.4269350   -0.1256344     0.5341110   -0.1182706     0.1044361    0.5722076 
   6.290078000    -0.5400849    0.3642732     0.4409039   -0.1029426     0.3998701   -0.1924441     0.1562611    0.5638855 
   6.332576500    -0.5196140    0.4179904     0.4707438   -0.2104758     0.4016166   -0.1562753     0.2170782    0.5492318 
   6.375075000    -0.4953693    0.4517139     0.4037594   -0.2614560     0.4483952   -0.2451934     0.2664301    0.5331275 
   6.417573500    -0.4527200    0.4808538     0.4121028   -0.3173480     0.3722890   -0.3418811     0.3107816    0.5068197 
   6.460072000    -0.3936994    0.5104734     0.3109843   -0.4050648     0.3207034   -0.3635808     0.3588523    0.4685334 
   6.502570500    -0.3360482    0.5498907     0.2816052   -0.3570198     0.2693759   -0.4120451     0.4045763    0.4309680 
   6.545069000    -0.2850899    0.5951694     0.3358312   -0.4661173     0.2310183   -0.4085976     0.4458634    0.3794587 
   6.587567500    -0.2468428    0.6224696     0.1359475   -0.5660210     0.2536665   -0.4889075     0.4622821    0.3375863 
   6.630066000    -0.1847537    0.6261526     0.0951421   -0.4511325     0.0729137   -0.6037163     0.4852643    0.2682937 
   6.672564500    -0.1342650    0.6444939     0.1427926   -0.5646027    -0.0072297   -0.4623459     0.5118496    0.2102942 
